
**** 05/27/23 16:37:33 ****** PSpice 17.2.0 (March 2016) ****** ID# 0 ********

 ** Profile: "SCHEMATIC1-Transient"  [ c:\orcad projects\opamp circuits\linear equation\lineqn-PSpiceFiles\SCHEMATIC1\Transient.sim ]


 ****     CIRCUIT DESCRIPTION


******************************************************************************




** Creating circuit file "Transient.cir" 
** WARNING: THIS AUTOMATICALLY GENERATED FILE MAY BE OVERWRITTEN BY SUBSEQUENT SIMULATIONS

*Libraries: 
* Profile Libraries :
* Local Libraries :
* From [PSPICE NETLIST] section of C:\Users\devan\AppData\Roaming\SPB_Data\cdssetup\OrCAD_PSpice\17.2.0\PSpice.ini file:
.lib "nom.lib" 

*Analysis directives: 
.TRAN  0 5m 0 0.1u 
.OPTIONS ADVCONV
.PROBE64 V(alias(*)) I(alias(*)) W(alias(*)) D(alias(*)) NOISE(alias(*)) 
.INC "..\SCHEMATIC1.net" 



**** INCLUDING SCHEMATIC1.net ****
* source LINEQN
V_V1         VCC 0 15
V_V2         0 VEE 15
R_R6         N01490 N01211  6k TC=0,0 
X_U1C         0 N01211 VCC VEE N01219 TL084
R_R5         N01211 N01219  12k TC=0,0 
V_V5         N01490 0 1
R_R7         N01615 N01211  2k TC=0,0 
V_V6         N01615 0 1
V_V8         N03074 0 1
R_R8         N02966 N02974  12k TC=0,0 
V_V7         N02998 0 2
R_R9         N02998 N02966  3k TC=0,0 
X_U2C         0 N02966 VCC VEE N02974 TL084
R_R10         N03074 N02966  4k TC=0,0 
R_R11         N03781 N03789  10k TC=0,0 
X_U3C         N03937 N03781 VCC VEE N03789 TL084
R_R12         N01219 N03937  10k TC=0,0 
R_R13         N02974 N03781  10k TC=0,0 
R_R14         0 N03937  10k TC=0,0 

**** RESUMING Transient.cir ****
.END

**** 05/27/23 16:37:33 ****** PSpice 17.2.0 (March 2016) ****** ID# 0 ********

 ** Profile: "SCHEMATIC1-Transient"  [ c:\orcad projects\opamp circuits\linear equation\lineqn-PSpiceFiles\SCHEMATIC1\Transient.sim ]


 ****     Diode MODEL PARAMETERS


******************************************************************************




               X_U1C.x_tl084.dx 
          IS  800.000000E-18 


               X_U1C.x_tl084.dy 
          IS  800.000000E-18 
          RS    1.000000E-03 
         CJO   10.000000E-12 


               X_U2C.x_tl084.dx 
          IS  800.000000E-18 


               X_U2C.x_tl084.dy 
          IS  800.000000E-18 
          RS    1.000000E-03 
         CJO   10.000000E-12 


               X_U3C.x_tl084.dx 
          IS  800.000000E-18 


               X_U3C.x_tl084.dy 
          IS  800.000000E-18 
          RS    1.000000E-03 
         CJO   10.000000E-12 


**** 05/27/23 16:37:33 ****** PSpice 17.2.0 (March 2016) ****** ID# 0 ********

 ** Profile: "SCHEMATIC1-Transient"  [ c:\orcad projects\opamp circuits\linear equation\lineqn-PSpiceFiles\SCHEMATIC1\Transient.sim ]


 ****     Junction FET MODEL PARAMETERS


******************************************************************************




               X_U1C.x_tl084.jx1 
               NJF             
         VTO   -1            
        BETA  222.070000E-06 
          IS  100.000000E-12 


               X_U1C.x_tl084.jx2 
               NJF             
         VTO   -1            
        BETA  222.070000E-06 
          IS  100.000000E-12 


               X_U2C.x_tl084.jx1 
               NJF             
         VTO   -1            
        BETA  222.070000E-06 
          IS  100.000000E-12 


               X_U2C.x_tl084.jx2 
               NJF             
         VTO   -1            
        BETA  222.070000E-06 
          IS  100.000000E-12 


               X_U3C.x_tl084.jx1 
               NJF             
         VTO   -1            
        BETA  222.070000E-06 
          IS  100.000000E-12 


               X_U3C.x_tl084.jx2 
               NJF             
         VTO   -1            
        BETA  222.070000E-06 
          IS  100.000000E-12 


**** 05/27/23 16:37:33 ****** PSpice 17.2.0 (March 2016) ****** ID# 0 ********

 ** Profile: "SCHEMATIC1-Transient"  [ c:\orcad projects\opamp circuits\linear equation\lineqn-PSpiceFiles\SCHEMATIC1\Transient.sim ]


 ****     INITIAL TRANSIENT SOLUTION       TEMPERATURE =   27.000 DEG C


******************************************************************************



 NODE   VOLTAGE     NODE   VOLTAGE     NODE   VOLTAGE     NODE   VOLTAGE


(  VCC)   15.0000  (  VEE)  -15.0000  (N01211) 14.41E-06 (N01219)   -7.9999     

(N01490)    1.0000 (N01615)    1.0000 (N02966) 25.16E-06 (N02974)  -11.0000     

(N02998)    2.0000 (N03074)    1.0000 (N03781)   -3.9998 (N03789)    3.0002     

(N03937)   -3.9999 (X_U1C.x_tl084.6) 761.7E-06                                  

(X_U1C.x_tl084.7)   -8.0532           (X_U1C.x_tl084.8)   -8.0532               

(X_U1C.x_tl084.9)    0.0000           (X_U2C.x_tl084.6)     .0010               

(X_U2C.x_tl084.7)  -11.0810           (X_U2C.x_tl084.8)  -11.0810               

(X_U2C.x_tl084.9)    0.0000           (X_U3C.x_tl084.6)-287.8E-06               

(X_U3C.x_tl084.7)    3.0352           (X_U3C.x_tl084.8)    3.0352               

(X_U3C.x_tl084.9)    0.0000           (X_U1C.x_tl084.10)     .3992              

(X_U1C.x_tl084.11)   14.5750          (X_U1C.x_tl084.12)   14.5750              

(X_U1C.x_tl084.53)   12.6840          (X_U1C.x_tl084.54)  -12.6840              

(X_U1C.x_tl084.90)   -1.0667          (X_U1C.x_tl084.91)   40.0000              

(X_U1C.x_tl084.92)  -40.0000          (X_U1C.x_tl084.99)    0.0000              

(X_U2C.x_tl084.10)     .3992          (X_U2C.x_tl084.11)   14.5750              

(X_U2C.x_tl084.12)   14.5750          (X_U2C.x_tl084.53)   12.6840              

(X_U2C.x_tl084.54)  -12.6840          (X_U2C.x_tl084.90)   -1.6167              

(X_U2C.x_tl084.91)   40.0000          (X_U2C.x_tl084.92)  -40.0000              

(X_U2C.x_tl084.99)    0.0000          (X_U3C.x_tl084.10)   -3.5947              

(X_U3C.x_tl084.11)   14.5830          (X_U3C.x_tl084.12)   14.5830              

(X_U3C.x_tl084.53)   12.6840          (X_U3C.x_tl084.54)  -12.6840              

(X_U3C.x_tl084.90)     .7000          (X_U3C.x_tl084.91)   40.0000              

(X_U3C.x_tl084.92)  -40.0000          (X_U3C.x_tl084.99)    0.0000          




    VOLTAGE SOURCE CURRENTS
    NAME         CURRENT

    V_V1        -6.848E-02
    V_V2        -6.848E-02
    V_V5        -1.667E-04
    V_V6        -5.000E-04
    V_V8        -2.500E-04
    V_V7        -6.667E-04
    X_U1C.x_tl084.vb   7.617E-09
    X_U1C.x_tl084.vc   2.068E-11
    X_U1C.x_tl084.ve   6.421E-12
    X_U1C.x_tl084.vlim  -1.067E-03
    X_U1C.x_tl084.vlp  -4.107E-11
    X_U1C.x_tl084.vln  -3.893E-11
    X_U2C.x_tl084.vb   1.048E-08
    X_U2C.x_tl084.vc   2.368E-11
    X_U2C.x_tl084.ve   3.421E-12
    X_U2C.x_tl084.vlim  -1.617E-03
    X_U2C.x_tl084.vlp  -4.162E-11
    X_U2C.x_tl084.vln  -3.838E-11
    X_U3C.x_tl084.vb  -2.878E-09
    X_U3C.x_tl084.vc   9.685E-12
    X_U3C.x_tl084.ve   1.742E-11
    X_U3C.x_tl084.vlim   7.000E-04
    X_U3C.x_tl084.vlp  -3.930E-11
    X_U3C.x_tl084.vln  -4.070E-11

    TOTAL POWER DISSIPATION   2.06E+00  WATTS



          JOB CONCLUDED

**** 05/27/23 16:37:33 ****** PSpice 17.2.0 (March 2016) ****** ID# 0 ********

 ** Profile: "SCHEMATIC1-Transient"  [ c:\orcad projects\opamp circuits\linear equation\lineqn-PSpiceFiles\SCHEMATIC1\Transient.sim ]


 ****     JOB STATISTICS SUMMARY


******************************************************************************



  Total job time (using Solver 1)   =        3.53
