
**** 05/27/23 13:20:08 ****** PSpice 17.2.0 (March 2016) ****** ID# 0 ********

 ** Profile: "SCHEMATIC1-Transient"  [ C:\OrCAD projects\Opamp Circuits\Subtractor\subtractor-PSpiceFiles\SCHEMATIC1\Transient.sim ] 


 ****     CIRCUIT DESCRIPTION


******************************************************************************




** Creating circuit file "Transient.cir" 
** WARNING: THIS AUTOMATICALLY GENERATED FILE MAY BE OVERWRITTEN BY SUBSEQUENT SIMULATIONS

*Libraries: 
* Profile Libraries :
* Local Libraries :
* From [PSPICE NETLIST] section of C:\Users\devan\AppData\Roaming\SPB_Data\cdssetup\OrCAD_PSpice\17.2.0\PSpice.ini file:
.lib "nom.lib" 

*Analysis directives: 
.TRAN  0 5m 0 0.1u 
.OPTIONS ADVCONV
.PROBE64 V(alias(*)) I(alias(*)) W(alias(*)) D(alias(*)) NOISE(alias(*)) 
.INC "..\SCHEMATIC1.net" 



**** INCLUDING SCHEMATIC1.net ****
* source SUBTRACTOR
X_U1A         N00274 N00500 VCC VEE N00488 TL084
V_V1         VCC 0 15
V_V2         0 VEE 15
R_R1         N00372 N00274  10k TC=0,0 
R_R2         0 N00274  10k TC=0,0 
V_V3         N00372 0  AC 0
+SIN 0 2 1k 0 0 0
R_R3         N00500 N00488  10k TC=0,0 
R_R4         N00591 N00500  10k TC=0,0 
V_V4         N00591 0  AC 0
+SIN 0 0.5 1k 0 0 0

**** RESUMING Transient.cir ****
.END

**** 05/27/23 13:20:08 ****** PSpice 17.2.0 (March 2016) ****** ID# 0 ********

 ** Profile: "SCHEMATIC1-Transient"  [ C:\OrCAD projects\Opamp Circuits\Subtractor\subtractor-PSpiceFiles\SCHEMATIC1\Transient.sim ] 


 ****     Diode MODEL PARAMETERS


******************************************************************************




               X_U1A.x_tl084.dx 
          IS  800.000000E-18 


               X_U1A.x_tl084.dy 
          IS  800.000000E-18 
          RS    1.000000E-03 
         CJO   10.000000E-12 


**** 05/27/23 13:20:08 ****** PSpice 17.2.0 (March 2016) ****** ID# 0 ********

 ** Profile: "SCHEMATIC1-Transient"  [ C:\OrCAD projects\Opamp Circuits\Subtractor\subtractor-PSpiceFiles\SCHEMATIC1\Transient.sim ] 


 ****     Junction FET MODEL PARAMETERS


******************************************************************************




               X_U1A.x_tl084.jx1 
               NJF             
         VTO   -1            
        BETA  222.070000E-06 
          IS  100.000000E-12 


               X_U1A.x_tl084.jx2 
               NJF             
         VTO   -1            
        BETA  222.070000E-06 
          IS  100.000000E-12 


**** 05/27/23 13:20:08 ****** PSpice 17.2.0 (March 2016) ****** ID# 0 ********

 ** Profile: "SCHEMATIC1-Transient"  [ C:\OrCAD projects\Opamp Circuits\Subtractor\subtractor-PSpiceFiles\SCHEMATIC1\Transient.sim ] 


 ****     INITIAL TRANSIENT SOLUTION       TEMPERATURE =   27.000 DEG C


******************************************************************************



 NODE   VOLTAGE     NODE   VOLTAGE     NODE   VOLTAGE     NODE   VOLTAGE


(  VCC)   15.0000  (  VEE)  -15.0000  (N00274) 1.075E-06 (N00372)    0.0000     

(N00488)-28.26E-06 (N00500)-13.06E-06 (N00591)    0.0000                        

(X_U1A.x_tl084.6) 2.671E-09           (X_U1A.x_tl084.7)-28.34E-06               

(X_U1A.x_tl084.8)-28.34E-06           (X_U1A.x_tl084.9)    0.0000               

(X_U1A.x_tl084.10)     .3992          (X_U1A.x_tl084.11)   14.5750              

(X_U1A.x_tl084.12)   14.5750          (X_U1A.x_tl084.53)   12.6840              

(X_U1A.x_tl084.54)  -12.6840          (X_U1A.x_tl084.90)-1.521E-06              

(X_U1A.x_tl084.91)   40.0000          (X_U1A.x_tl084.92)  -40.0000              

(X_U1A.x_tl084.99)    0.0000          




    VOLTAGE SOURCE CURRENTS
    NAME         CURRENT

    V_V1        -2.283E-02
    V_V2        -2.283E-02
    V_V3         1.075E-10
    V_V4        -1.306E-09
    X_U1A.x_tl084.vb   2.671E-14
    X_U1A.x_tl084.vc   1.269E-11
    X_U1A.x_tl084.ve   1.442E-11
    X_U1A.x_tl084.vlim  -1.521E-09
    X_U1A.x_tl084.vlp  -4.000E-11
    X_U1A.x_tl084.vln  -4.000E-11

    TOTAL POWER DISSIPATION   6.85E-01  WATTS



          JOB CONCLUDED

**** 05/27/23 13:20:08 ****** PSpice 17.2.0 (March 2016) ****** ID# 0 ********

 ** Profile: "SCHEMATIC1-Transient"  [ C:\OrCAD projects\Opamp Circuits\Subtractor\subtractor-PSpiceFiles\SCHEMATIC1\Transient.sim ] 


 ****     JOB STATISTICS SUMMARY


******************************************************************************



  Total job time (using Solver 1)   =        2.41
