
**** 05/30/23 21:21:28 ****** PSpice 17.2.0 (March 2016) ****** ID# 0 ********

 ** Profile: "SCHEMATIC1-Transient"  [ c:\orcad projects\opamp circuits\vi converter gnd\vignd-pspicefiles\schematic1\transient.sim ]


 ****     CIRCUIT DESCRIPTION


******************************************************************************




** Creating circuit file "Transient.cir" 
** WARNING: THIS AUTOMATICALLY GENERATED FILE MAY BE OVERWRITTEN BY SUBSEQUENT SIMULATIONS

*Libraries: 
* Profile Libraries :
* Local Libraries :
* From [PSPICE NETLIST] section of C:\Users\devan\AppData\Roaming\SPB_Data\cdssetup\OrCAD_PSpice\17.2.0\PSpice.ini file:
.lib "nom.lib" 

*Analysis directives: 
.TRAN  0 5m 0 0.1u 
.OPTIONS ADVCONV
.PROBE64 V(alias(*)) I(alias(*)) W(alias(*)) D(alias(*)) NOISE(alias(*)) 
.INC "..\SCHEMATIC1.net" 



**** INCLUDING SCHEMATIC1.net ****
* source VIGND
X_U1A         N00318 N00333 VCC VEE N00470 TL084
V_V1         VCC 0 15
V_V2         0 VEE 15
V_V3         N00322 0 1
R_R1         N00322 N00318  10k TC=0,0 
R_R3         0 N00333  10k TC=0,0 
R_R4         N00333 N00470  10k TC=0,0 
R_R5         0 N00318  11k TC=0,0 
R_R2         N00318 N00470  10k TC=0,0 

**** RESUMING Transient.cir ****
.END

**** 05/30/23 21:21:28 ****** PSpice 17.2.0 (March 2016) ****** ID# 0 ********

 ** Profile: "SCHEMATIC1-Transient"  [ c:\orcad projects\opamp circuits\vi converter gnd\vignd-pspicefiles\schematic1\transient.sim ]


 ****     Diode MODEL PARAMETERS


******************************************************************************




               X_U1A.x_tl084.dx 
          IS  800.000000E-18 


               X_U1A.x_tl084.dy 
          IS  800.000000E-18 
          RS    1.000000E-03 
         CJO   10.000000E-12 


**** 05/30/23 21:21:28 ****** PSpice 17.2.0 (March 2016) ****** ID# 0 ********

 ** Profile: "SCHEMATIC1-Transient"  [ c:\orcad projects\opamp circuits\vi converter gnd\vignd-pspicefiles\schematic1\transient.sim ]


 ****     Junction FET MODEL PARAMETERS


******************************************************************************




               X_U1A.x_tl084.jx1 
               NJF             
         VTO   -1            
        BETA  222.070000E-06 
          IS  100.000000E-12 


               X_U1A.x_tl084.jx2 
               NJF             
         VTO   -1            
        BETA  222.070000E-06 
          IS  100.000000E-12 


**** 05/30/23 21:21:28 ****** PSpice 17.2.0 (March 2016) ****** ID# 0 ********

 ** Profile: "SCHEMATIC1-Transient"  [ c:\orcad projects\opamp circuits\vi converter gnd\vignd-pspicefiles\schematic1\transient.sim ]


 ****     INITIAL TRANSIENT SOLUTION       TEMPERATURE =   27.000 DEG C


******************************************************************************



 NODE   VOLTAGE     NODE   VOLTAGE     NODE   VOLTAGE     NODE   VOLTAGE


(  VCC)   15.0000  (  VEE)  -15.0000  (N00318)    1.0999 (N00322)    1.0000     

(N00333)    1.0998 (N00470)    2.1996 (X_U1A.x_tl084.6)-208.9E-06               

(X_U1A.x_tl084.7)    2.2106           (X_U1A.x_tl084.8)    2.2106               

(X_U1A.x_tl084.9)    0.0000           (X_U1A.x_tl084.10)    1.4974              

(X_U1A.x_tl084.11)   14.5720          (X_U1A.x_tl084.12)   14.5720              

(X_U1A.x_tl084.53)   12.6840          (X_U1A.x_tl084.54)  -12.6840              

(X_U1A.x_tl084.90)     .2200          (X_U1A.x_tl084.91)   40.0000              

(X_U1A.x_tl084.92)  -40.0000          (X_U1A.x_tl084.99)    0.0000          




    VOLTAGE SOURCE CURRENTS
    NAME         CURRENT

    V_V1        -2.283E-02
    V_V2        -2.283E-02
    V_V3         9.987E-06
    X_U1A.x_tl084.vb  -2.089E-09
    X_U1A.x_tl084.vc   1.049E-11
    X_U1A.x_tl084.ve   1.662E-11
    X_U1A.x_tl084.vlim   2.200E-04
    X_U1A.x_tl084.vlp  -3.978E-11
    X_U1A.x_tl084.vln  -4.022E-11

    TOTAL POWER DISSIPATION   6.85E-01  WATTS



          JOB CONCLUDED

**** 05/30/23 21:21:28 ****** PSpice 17.2.0 (March 2016) ****** ID# 0 ********

 ** Profile: "SCHEMATIC1-Transient"  [ c:\orcad projects\opamp circuits\vi converter gnd\vignd-pspicefiles\schematic1\transient.sim ]


 ****     JOB STATISTICS SUMMARY


******************************************************************************



  Total job time (using Solver 1)   =        2.47
