
**** 06/05/23 21:48:19 ****** PSpice 17.2.0 (March 2016) ****** ID# 0 ********

 ** Profile: "SCHEMATIC1-Transient"  [ C:\OrCAD projects\Opamp Circuits\Time marker\TimeMarker-PSpiceFiles\SCHEMATIC1\Transient.sim ]


 ****     CIRCUIT DESCRIPTION


******************************************************************************




** Creating circuit file "Transient.cir" 
** WARNING: THIS AUTOMATICALLY GENERATED FILE MAY BE OVERWRITTEN BY SUBSEQUENT SIMULATIONS

*Libraries: 
* Profile Libraries :
* Local Libraries :
* From [PSPICE NETLIST] section of C:\Users\devan\AppData\Roaming\SPB_Data\cdssetup\OrCAD_PSpice\17.2.0\PSpice.ini file:
.lib "nom.lib" 

*Analysis directives: 
.TRAN  0 5m 0 0.1u 
.OPTIONS ADVCONV
.PROBE64 V(alias(*)) I(alias(*)) W(alias(*)) D(alias(*)) NOISE(alias(*)) 
.INC "..\SCHEMATIC1.net" 



**** INCLUDING SCHEMATIC1.net ****
* source TIMEMARKER
X_U1A         N00157 0 VCC VEE N00490 TL084
V_V1         VCC 0 15
V_V2         0 VEE 15
V_V3         N00157 0  AC 0
+SIN 0 2 1k 0 0 0
C_C1         N00490 N00477  0.1u  TC=0,0 
R_R1         0 N00477  1k TC=0,0 
D_D1         N00477 N00494 D1N4001 
R_R2         0 N00494  1k TC=0,0 

**** RESUMING Transient.cir ****
.END

**** 06/05/23 21:48:19 ****** PSpice 17.2.0 (March 2016) ****** ID# 0 ********

 ** Profile: "SCHEMATIC1-Transient"  [ C:\OrCAD projects\Opamp Circuits\Time marker\TimeMarker-PSpiceFiles\SCHEMATIC1\Transient.sim ]


 ****     Diode MODEL PARAMETERS


******************************************************************************




               D1N4001         X_U1A.x_tl084.dx 
          IS   14.110000E-09  800.000000E-18 
           N    1.984                        
         IKF   94.81                         
          BV   75                            
         IBV   10.000000E-06                 
          RS     .03389                      
          TT    5.700000E-06                 
         CJO   25.890000E-12                 
          VJ     .3245                       
           M     .44                         


               X_U1A.x_tl084.dy 
          IS  800.000000E-18 
          RS    1.000000E-03 
         CJO   10.000000E-12 


**** 06/05/23 21:48:19 ****** PSpice 17.2.0 (March 2016) ****** ID# 0 ********

 ** Profile: "SCHEMATIC1-Transient"  [ C:\OrCAD projects\Opamp Circuits\Time marker\TimeMarker-PSpiceFiles\SCHEMATIC1\Transient.sim ]


 ****     Junction FET MODEL PARAMETERS


******************************************************************************




               X_U1A.x_tl084.jx1 
               NJF             
         VTO   -1            
        BETA  222.070000E-06 
          IS  100.000000E-12 


               X_U1A.x_tl084.jx2 
               NJF             
         VTO   -1            
        BETA  222.070000E-06 
          IS  100.000000E-12 


**** 06/05/23 21:48:19 ****** PSpice 17.2.0 (March 2016) ****** ID# 0 ********

 ** Profile: "SCHEMATIC1-Transient"  [ C:\OrCAD projects\Opamp Circuits\Time marker\TimeMarker-PSpiceFiles\SCHEMATIC1\Transient.sim ]


 ****     INITIAL TRANSIENT SOLUTION       TEMPERATURE =   27.000 DEG C


******************************************************************************



 NODE   VOLTAGE     NODE   VOLTAGE     NODE   VOLTAGE     NODE   VOLTAGE


(  VCC)   15.0000  (  VEE)  -15.0000  (N00157)    0.0000 (N00477) 256.2E-24     

(N00490)   -4.0013 (N00494)-256.2E-24 (X_U1A.x_tl084.6) 377.1E-06               

(X_U1A.x_tl084.7)   -4.0013           (X_U1A.x_tl084.8)   -4.0013               

(X_U1A.x_tl084.9)    0.0000           (X_U1A.x_tl084.10)     .3992              

(X_U1A.x_tl084.11)   14.5750          (X_U1A.x_tl084.12)   14.5750              

(X_U1A.x_tl084.53)   12.6840          (X_U1A.x_tl084.54)  -12.6840              

(X_U1A.x_tl084.90)-8.570E-09          (X_U1A.x_tl084.91)   40.0000              

(X_U1A.x_tl084.92)  -40.0000          (X_U1A.x_tl084.99)    0.0000          




    VOLTAGE SOURCE CURRENTS
    NAME         CURRENT

    V_V1        -2.283E-02
    V_V2        -2.283E-02
    V_V3         2.150E-10
    X_U1A.x_tl084.vb   3.771E-09
    X_U1A.x_tl084.vc   1.669E-11
    X_U1A.x_tl084.ve   1.042E-11
    X_U1A.x_tl084.vlim  -8.570E-12
    X_U1A.x_tl084.vlp  -4.000E-11
    X_U1A.x_tl084.vln  -4.000E-11

    TOTAL POWER DISSIPATION   6.85E-01  WATTS



          JOB CONCLUDED

**** 06/05/23 21:48:19 ****** PSpice 17.2.0 (March 2016) ****** ID# 0 ********

 ** Profile: "SCHEMATIC1-Transient"  [ C:\OrCAD projects\Opamp Circuits\Time marker\TimeMarker-PSpiceFiles\SCHEMATIC1\Transient.sim ]


 ****     JOB STATISTICS SUMMARY


******************************************************************************



  Total job time (using Solver 1)   =        1.52
